Title: //input.scs
Date: 9:40:15 PM, Sat Jun 12, 2021
Plotname: DC Analysis `dc1'
Flags: real
No. Variables:        5
No. Points:        1
Variables:	0	dummy	dummy
		1	R1:1	A plot=0 grid=0
		2	V0:p	A plot=0 grid=0
		3	O	V plot=0 grid=0
		4	I	V plot=0 grid=0
Values:
 0	0	0.0005	-0.0005
	0.5	1
Plotname: DC Analysis `dc2': VI = (0 -> 10)
Flags: real
No. Variables:        5
No. Points:       51
Variables:	0	VI	sweep
		1	R1:1	A plot=0 grid=0
		2	V0:p	A plot=0 grid=0
		3	O	V plot=0 grid=0
		4	I	V plot=0 grid=0
Values:
 0	0	0	0
	0	0
 1	0.2	0.0001	-0.0001
	0.1	0.2
 2	0.4	0.0002	-0.0002
	0.2	0.4
 3	0.6	0.0003	-0.0003
	0.3	0.6
 4	0.8	0.0004	-0.0004
	0.4	0.8
 5	1	0.0005	-0.0005
	0.5	1
 6	1.2	0.0006	-0.0006
	0.6	1.2
 7	1.4	0.0007	-0.0007
	0.7	1.4
 8	1.6	0.0008	-0.0008
	0.8	1.6
 9	1.8	0.0009	-0.0009
	0.9	1.8
 10	2	0.001	-0.001
	1	2
 11	2.2	0.0011	-0.0011
	1.1	2.2
 12	2.4	0.0012	-0.0012
	1.2	2.4
 13	2.6	0.0013	-0.0013
	1.3	2.6
 14	2.8	0.0014	-0.0014
	1.4	2.8
 15	3	0.0015	-0.0015
	1.5	3
 16	3.2	0.0016	-0.0016
	1.6	3.2
 17	3.4	0.0017	-0.0017
	1.7	3.4
 18	3.6	0.0018	-0.0018
	1.8	3.6
 19	3.8	0.0019	-0.0019
	1.9	3.8
 20	4	0.002	-0.002
	2	4
 21	4.2	0.0021	-0.0021
	2.1	4.2
 22	4.4	0.0022	-0.0022
	2.2	4.4
 23	4.6	0.0023	-0.0023
	2.3	4.6
 24	4.8	0.0024	-0.0024
	2.4	4.8
 25	5	0.0025	-0.0025
	2.5	5
 26	5.2	0.0026	-0.0026
	2.6	5.2
 27	5.4	0.0027	-0.0027
	2.7	5.4
 28	5.6	0.0028	-0.0028
	2.8	5.6
 29	5.8	0.0029	-0.0029
	2.9	5.8
 30	6	0.003	-0.003
	3	6
 31	6.2	0.0031	-0.0031
	3.1	6.2
 32	6.4	0.0032	-0.0032
	3.2	6.4
 33	6.6	0.0033	-0.0033
	3.3	6.6
 34	6.8	0.0034	-0.0034
	3.4	6.8
 35	7	0.0035	-0.0035
	3.5	7
 36	7.2	0.0036	-0.0036
	3.6	7.2
 37	7.4	0.0037	-0.0037
	3.7	7.4
 38	7.6	0.0038	-0.0038
	3.8	7.6
 39	7.8	0.0039	-0.0039
	3.9	7.8
 40	8	0.004	-0.004
	4	8
 41	8.2	0.0041	-0.0041
	4.1	8.2
 42	8.4	0.0042	-0.0042
	4.2	8.4
 43	8.6	0.0043	-0.0043
	4.3	8.6
 44	8.8	0.0044	-0.0044
	4.4	8.8
 45	9	0.0045	-0.0045
	4.5	9
 46	9.2	0.0046	-0.0046
	4.6	9.2
 47	9.4	0.0047	-0.0047
	4.7	9.4
 48	9.6	0.0048	-0.0048
	4.8	9.6
 49	9.8	0.0049	-0.0049
	4.9	9.8
 50	10	0.005	-0.005
	5	10
Plotname: AC Analysis `ac': freq = (1 Hz -> 1 GHz)
Flags: complex
No. Variables:        5
No. Points:       51
Variables:	0	freq	Hz
		1	R1:1	A plot=0 grid=0
		2	V0:p	A plot=0 grid=0
		3	O	V plot=0 grid=0
		4	I	V plot=0 grid=0
Values:
 0	1,0
	0.0005,-1.5707963267949e-12
	-0.0005,-1.5707963267949e-12
	0.5,-1.5707963267949e-09
	1,0
 1	1.51356124843621,0
	0.0005,-2.37749644942269e-12
	-0.0005,-2.37749644942269e-12
	0.5,-2.37749644942269e-09
	1,0
 2	2.29086765276777,0
	0.0005,-3.59848649414086e-12
	-0.0005,-3.59848649414086e-12
	0.5,-3.59848649414086e-09
	1,0
 3	3.46736850452532,0
	0.0005,-5.44652971055268e-12
	-0.0005,-5.44652971055268e-12
	0.5,-5.44652971055268e-09
	1,0
 4	5.24807460249773,0
	0.0005,-8.24365630834901e-12
	-0.0005,-8.24365630834901e-12
	0.5,-8.24365630834901e-09
	1,0
 5	7.94328234724282,0
	0.0005,-1.24772787337438e-11
	-0.0005,-1.24772787337438e-11
	0.5,-1.24772787337438e-08
	1,0
 6	12.0226443461741,0
	0.000499999999999999,-1.88851255773317e-11
	-0.000500000000000001,-1.88851255773317e-11
	0.499999999999999,-1.88851255773317e-08
	1,0
 7	18.1970085860998,0
	0.000499999999999998,-2.85837942457007e-11
	-0.000500000000000002,-2.85837942457007e-11
	0.499999999999998,-2.85837942457007e-08
	1,0
 8	27.5422870333817,0
	0.000499999999999996,-4.32633233035663e-11
	-0.000500000000000004,-4.32633233035663e-11
	0.499999999999996,-4.32633233035663e-08
	1,0
 9	41.6869383470335,0
	0.000499999999999991,-6.54816896308445e-11
	-0.000500000000000009,-6.54816896308445e-11
	0.499999999999991,-6.54816896308445e-08
	1,0
 10	63.0957344480193,0
	0.00049999999999998,-9.91105479073711e-11
	-0.00050000000000002,-9.91105479073711e-11
	0.49999999999998,-9.91105479073711e-08
	1,0
 11	95.4992586021436,0
	0.000499999999999955,-1.5000988462387e-10
	-0.000500000000000045,-1.5000988462387e-10
	0.499999999999955,-1.5000988462387e-07
	1,0
 12	144.543977074593,0
	0.000499999999999897,-2.27049148249049e-10
	-0.000500000000000103,-2.27049148249049e-10
	0.499999999999897,-2.27049148249049e-07
	1,0
 13	218.776162394955,0
	0.000499999999999764,-3.43652792280117e-10
	-0.000500000000000236,-3.43652792280117e-10
	0.499999999999764,-3.43652792280117e-07
	1,0
 14	331.131121482591,0
	0.000499999999999459,-5.20139549311766e-10
	-0.000500000000000541,-5.20139549311766e-10
	0.499999999999459,-5.20139549311766e-07
	1,0
 15	501.187233627272,0
	0.00049999999999876,-7.87263065616264e-10
	-0.00050000000000124,-7.87263065616264e-10
	0.49999999999876,-7.87263065616264e-07
	1,0
 16	758.577575029184,0
	0.00049999999999716,-1.19157086843805e-09
	-0.00050000000000284,-1.19157086843805e-09
	0.49999999999716,-1.19157086843805e-06
	1,0
 17	1148.15362149688,0
	0.000499999999993495,-1.8035154912201e-09
	-0.000500000000006505,-1.8035154912201e-09
	0.499999999993495,-1.8035154912201e-06
	1,0
 18	1737.80082874938,0
	0.000499999999985097,-2.72973115841928e-09
	-0.000500000000014903,-2.72973115841928e-09
	0.499999999985097,-2.72973115841928e-06
	1,0
 19	2630.26799189538,0
	0.00049999999996586,-4.13161529987335e-09
	-0.00050000000003414,-4.13161529987335e-09
	0.49999999996586,-4.13161529987335e-06
	1,0
 20	3981.07170553497,0
	0.000499999999921789,-6.25345281078325e-09
	-0.000500000000078211,-6.25345281078325e-09
	0.499999999921789,-6.25345281078325e-06
	1,0
 21	6025.59586074358,0
	0.000499999999820828,-9.46498384141483e-09
	-0.000500000000179172,-9.46498384141483e-09
	0.499999999820828,-9.46498384141483e-06
	1,0
 22	9120.1083935591,0
	0.000499999999589541,-1.43258327528136e-08
	-0.000500000000410459,-1.43258327528136e-08
	0.499999999589541,-1.43258327528136e-05
	1,0
 23	13803.8426460289,0
	0.000499999999059693,-2.16830252832595e-08
	-0.000500000000940307,-2.16830252832595e-08
	0.499999999059693,-2.16830252832595e-05
	1,0
 24	20892.9613085404,0
	0.000499999997845881,-3.28185867379329e-08
	-0.000500000002154119,-3.28185867379329e-08
	0.499999997845881,-3.28185867379329e-05
	1,0
 25	31622.7766016838,0
	0.000499999995065198,-4.96729408387283e-08
	-0.000500000004934802,-4.96729408387283e-08
	0.499999995065198,-4.96729408387283e-05
	1,0
 26	47863.0092322639,0
	0.000499999988695021,-7.5183037391505e-08
	-0.000500000011304979,-7.5183037391505e-08
	0.499999988695021,-7.5183037391505e-05
	1,0
 27	72443.596007499,0
	0.000499999974101791,-1.13794128614264e-07
	-0.000500000025898209,-1.13794128614264e-07
	0.499999974101791,-0.000113794128614264
	1,0
 28	109647.819614319,0
	0.000499999940670635,-1.72234371854127e-07
	-0.000500000059329365,-1.72234371854127e-07
	0.499999940670635,-0.000172234371854127
	1,0
 29	165958.690743756,0
	0.000499999864084298,-2.60687230956987e-07
	-0.000500000135915702,-2.60687230956987e-07
	0.499999864084298,-0.000260687230956987
	1,0
 30	251188.643150958,0
	0.000499999688635225,-3.94565952286088e-07
	-0.000500000311364775,-3.94565952286088e-07
	0.499999688635225,-0.000394565952286088
	1,0
 31	380189.396320561,0
	0.000499999286705081,-5.97199255267104e-07
	-0.000500000713294919,-5.97199255267104e-07
	0.499999286705081,-0.000597199255267104
	1,0
 32	575439.937337157,0
	0.000499998365938753,-9.03895985807835e-07
	-0.000500001634061247,-9.03895985807835e-07
	0.499998365938753,-0.000903895985807835
	1,0
 33	870963.589956081,0
	0.00049999625659774,-1.36809616512987e-06
	-0.00050000374340226,-1.36809616512987e-06
	0.49999625659774,-0.00136809616512987
	1,0
 34	1318256.73855641,0
	0.000499991424443729,-2.07067732766802e-06
	-0.000500008575556271,-2.07067732766802e-06
	0.499991424443729,-0.00207067732766802
	1,0
 35	1995262.31496888,0
	0.000499980354970472,-3.1340275743787e-06
	-0.000500019645029528,-3.1340275743787e-06
	0.499980354970472,-0.0031340275743787
	1,0
 36	3019951.72040202,0
	0.000499954998119733,-4.74330211605021e-06
	-0.000500045001880267,-4.74330211605021e-06
	0.499954998119733,-0.00474330211605021
	1,0
 37	4570881.89614875,0
	0.000499896918624481,-7.1784442596981e-06
	-0.000500103081375519,-7.1784442596981e-06
	0.499896918624481,-0.0071784442596981
	1,0
 38	6918309.70918937,0
	0.000499763917039702,-1.08621243311366e-05
	-0.000500236082960299,-1.08621243311366e-05
	0.499763917039702,-0.0108621243311366
	1,0
 39	10471285.480509,0
	0.000499459494622917,-1.64304760271491e-05
	-0.000500540505377083,-1.64304760271491e-05
	0.499459494622917,-0.0164304760271491
	1,0
 40	15848931.9246112,0
	0.000498763499180442,-2.48338775768574e-05
	-0.000501236500819558,-2.48338775768574e-05
	0.498763499180442,-0.0248338775768574
	1,0
 41	23988329.1901949,0
	0.000497176354244519,-3.74679850323977e-05
	-0.000502823645755481,-3.74679850323977e-05
	0.497176354244519,-0.0374679850323977
	1,0
 42	36307805.4770102,0
	0.000493578215480987,-5.62996708968886e-05
	-0.000506421784519013,-5.62996708968886e-05
	0.493578215480987,-0.0562996708968886
	1,0
 43	54954087.3857625,0
	0.000485528470100008,-8.38232651019374e-05
	-0.000514471529899992,-8.38232651019374e-05
	0.485528470100008,-0.0838232651019374
	1,0
 44	83176377.1102672,0
	0.000468041657000736,-0.000122302231428431
	-0.000531958342999264,-0.000122302231428431
	0.468041657000736,-0.122302231428431
	1,0
 45	125892541.179417,0
	0.000432367857418578,-0.000171002820387727
	-0.000567632142581422,-0.000171002820387727
	0.432367857418578,-0.171002820387727
	1,0
 46	190546071.796325,0
	0.000368095356547576,-0.00022034855743095
	-0.000631904643452424,-0.00022034855743095
	0.368095356547576,-0.22034855743095
	1,0
 47	288403150.312661,0
	0.000274586783773799,-0.000248788042445091
	-0.000725413216226201,-0.000248788042445091
	0.274586783773799,-0.248788042445091
	1,0
 48	436515832.240167,0
	0.000173574085058046,-0.000238031677566842
	-0.000826425914941954,-0.000238031677566842
	0.173574085058046,-0.238031677566842
	1,0
 49	660693448.007597,0
	9.41932041215923e-05,-0.000195510210367909
	-0.000905806795878408,-0.000195510210367909
	0.0941932041215923,-0.195510210367909
	1,0
 50	1000000000,0
	4.59998341751876e-05,-0.000144512741111118
	-0.000954000165824812,-0.000144512741111118
	0.0459998341751876,-0.144512741111118
	1,0
Plotname: Transient Analysis `tran': time = (0 s -> 5 ns)
Flags: real
No. Variables:        5
No. Points:       56
Variables:	0	time	s
		1	R1:1	A plot=0 grid=0
		2	V0:p	A plot=0 grid=0
		3	O	V plot=0 grid=0
		4	I	V plot=0 grid=0
Values:
 0	0	9.99998000004e-10	-0.000999999000002
	9.99998000004e-07	1
 1	5e-12	4.95148514653466e-06	-0.000995048514853465
	0.00495148514653466	1
 2	1.08887785113117e-11	1.0714077993335e-05	-0.000989285922006665
	0.010714077993335	1
 3	1.81421562293033e-11	1.77609158256401e-05	-0.00098223908417436
	0.0177609158256401	1
 4	3.26489116652865e-11	3.15522965499283e-05	-0.000968447703450072
	0.0315522965499283	1
 5	6.1662422537253e-11	5.79684949640373e-05	-0.000942031505035963
	0.0579684949640373	1
 6	1.19689444281186e-10	0.000106454537809988	-0.000893545462190012
	0.106454537809988	1
 7	2.19689444281186e-10	0.000178008258208172	-0.000821991741791828
	0.178008258208172	1
 8	3.19689444281186e-10	0.000236552211261232	-0.000763447788738768
	0.236552211261232	1
 9	4.19689444281186e-10	0.000284451809213735	-0.000715548190786265
	0.284451809213735	1
 10	5.19689444281186e-10	0.000323642389356693	-0.000676357610643308
	0.323642389356693	1
 11	6.19689444281186e-10	0.000355707409473658	-0.000644292590526342
	0.355707409473658	1
 12	7.19689444281186e-10	0.000381942425932993	-0.000618057574067007
	0.381942425932993	1
 13	8.19689444281186e-10	0.000403407439399721	-0.000596592560600279
	0.403407439399721	1
 14	9.19689444281186e-10	0.000420969723145226	-0.000579030276854773
	0.420969723145226	1
 15	1.01968944428119e-09	0.000435338864391549	-0.000564661135608451
	0.435338864391549	1
 16	1.11968944428119e-09	0.000447095434502176	-0.000552904565497824
	0.447095434502176	1
 17	1.21968944428119e-09	0.000456714446410872	-0.000543285553589129
	0.456714446410871	1
 18	1.31968944428119e-09	0.00046458454706344	-0.00053541545293656
	0.46458454706344	1
 19	1.41968944428119e-09	0.000471023720324633	-0.000528976279675367
	0.471023720324633	1
 20	1.51968944428119e-09	0.000476292134811063	-0.000523707865188937
	0.476292134811063	1
 21	1.61968944428119e-09	0.000480602655754506	-0.000519397344245494
	0.480602655754506	1
 22	1.71968944428119e-09	0.000484129445617323	-0.000515870554382677
	0.484129445617323	1
 23	1.81968944428119e-09	0.000487015000959628	-0.000512984999040372
	0.487015000959628	1
 24	1.91968944428119e-09	0.000489375909876059	-0.000510624090123941
	0.489375909876059	1
 25	2.01968944428119e-09	0.000491307562625867	-0.000508692437374133
	0.491307562625867	1
 26	2.11968944428119e-09	0.0004928880057848	-0.0005071119942152
	0.4928880057848	1
 27	2.21968944428119e-09	0.000494181095642109	-0.000505818904357891
	0.494181095642109	1
 28	2.31968944428119e-09	0.000495239078252635	-0.000504760921747365
	0.495239078252635	1
 29	2.41968944428119e-09	0.000496104700388519	-0.000503895299611481
	0.496104700388519	1
 30	2.51968944428119e-09	0.000496812936681516	-0.000503187063318484
	0.496812936681516	1
 31	2.61968944428119e-09	0.000497392402739422	-0.000502607597260578
	0.497392402739422	1
 32	2.71968944428119e-09	0.000497866511332255	-0.000502133488667745
	0.497866511332255	1
 33	2.81968944428119e-09	0.000498254418362754	-0.000501745581637246
	0.498254418362754	1
 34	2.91968944428119e-09	0.000498571796842253	-0.000501428203157747
	0.498571796842253	1
 35	3.01968944428119e-09	0.000498831470143662	-0.000501168529856338
	0.498831470143662	1
 36	3.11968944428119e-09	0.000499043930117541	-0.000500956069882459
	0.499043930117541	1
 37	3.21968944428119e-09	0.000499217761005261	-0.000500782238994739
	0.499217761005261	1
 38	3.31968944428119e-09	0.000499359986277032	-0.000500640013722968
	0.499359986277032	1
 39	3.41968944428119e-09	0.000499476352408481	-0.000500523647591519
	0.499476352408481	1
 40	3.51968944428119e-09	0.000499571561061484	-0.000500428438938516
	0.499571561061484	1
 41	3.61968944428119e-09	0.000499649459050305	-0.000500350540949695
	0.499649459050305	1
 42	3.71968944428119e-09	0.000499713193768431	-0.000500286806231569
	0.499713193768431	1
 43	3.81968944428119e-09	0.000499765340355989	-0.000500234659644011
	0.499765340355989	1
 44	3.91968944428119e-09	0.00049980800574581	-0.00050019199425419
	0.49980800574581	1
 45	4.01968944428119e-09	0.000499842913792026	-0.000500157086207974
	0.499842913792026	1
 46	4.11968944428119e-09	0.000499871474920749	-0.000500128525079251
	0.499871474920749	1
 47	4.21968944428119e-09	0.000499894843116976	-0.000500105156883024
	0.499894843116976	1
 48	4.31968944428119e-09	0.000499913962550253	-0.000500086037449747
	0.499913962550253	1
 49	4.41968944428119e-09	0.000499929605722934	-0.000500070394277066
	0.499929605722934	1
 50	4.51968944428119e-09	0.000499942404682401	-0.000500057595317599
	0.499942404682401	1
 51	4.61968944428119e-09	0.000499952876558328	-0.000500047123441672
	0.499952876558328	1
 52	4.71968944428119e-09	0.000499961444456814	-0.000500038555543186
	0.499961444456814	1
 53	4.81968944428119e-09	0.000499968454555575	-0.000500031545444425
	0.499968454555575	1
 54	4.91968944428119e-09	0.000499974190090925	-0.000500025809909075
	0.499974190090925	1
 55	5e-09	0.00049997802752106	-0.00050002197247894
	0.49997802752106	1
