Title: //input.scs
Date: 8:34:02 AM, Sat Jun 12, 2021
Plotname: DC Analysis `dc'
Flags: real
No. Variables:        5
No. Points:        1
Variables:	0	dummy	dummy
		1	R1:1	A plot=0 grid=0
		2	V0:p	A plot=0 grid=0
		3	O	V plot=0 grid=0
		4	I	V plot=0 grid=0
Values:
 0	0	0.0005	-0.0005
	0.5	1
Plotname: AC Analysis `ac': freq = (1 Hz -> 1 GHz)
Flags: complex
No. Variables:        5
No. Points:       51
Variables:	0	freq	Hz
		1	R1:1	A plot=0 grid=0
		2	V0:p	A plot=0 grid=0
		3	O	V plot=0 grid=0
		4	I	V plot=0 grid=0
Values:
 0	1,0
	0.0005,-1.5707963267949e-12
	-0.0005,-1.5707963267949e-12
	0.5,-1.5707963267949e-09
	1,0
 1	1.51356124843621,0
	0.0005,-2.37749644942269e-12
	-0.0005,-2.37749644942269e-12
	0.5,-2.37749644942269e-09
	1,0
 2	2.29086765276777,0
	0.0005,-3.59848649414086e-12
	-0.0005,-3.59848649414086e-12
	0.5,-3.59848649414086e-09
	1,0
 3	3.46736850452532,0
	0.0005,-5.44652971055268e-12
	-0.0005,-5.44652971055268e-12
	0.5,-5.44652971055268e-09
	1,0
 4	5.24807460249773,0
	0.0005,-8.24365630834901e-12
	-0.0005,-8.24365630834901e-12
	0.5,-8.24365630834901e-09
	1,0
 5	7.94328234724282,0
	0.0005,-1.24772787337438e-11
	-0.0005,-1.24772787337438e-11
	0.5,-1.24772787337438e-08
	1,0
 6	12.0226443461741,0
	0.000499999999999999,-1.88851255773317e-11
	-0.000500000000000001,-1.88851255773317e-11
	0.499999999999999,-1.88851255773317e-08
	1,0
 7	18.1970085860998,0
	0.000499999999999998,-2.85837942457007e-11
	-0.000500000000000002,-2.85837942457007e-11
	0.499999999999998,-2.85837942457007e-08
	1,0
 8	27.5422870333817,0
	0.000499999999999996,-4.32633233035663e-11
	-0.000500000000000004,-4.32633233035663e-11
	0.499999999999996,-4.32633233035663e-08
	1,0
 9	41.6869383470335,0
	0.000499999999999991,-6.54816896308445e-11
	-0.000500000000000009,-6.54816896308445e-11
	0.499999999999991,-6.54816896308445e-08
	1,0
 10	63.0957344480193,0
	0.00049999999999998,-9.91105479073711e-11
	-0.00050000000000002,-9.91105479073711e-11
	0.49999999999998,-9.91105479073711e-08
	1,0
 11	95.4992586021436,0
	0.000499999999999955,-1.5000988462387e-10
	-0.000500000000000045,-1.5000988462387e-10
	0.499999999999955,-1.5000988462387e-07
	1,0
 12	144.543977074593,0
	0.000499999999999897,-2.27049148249049e-10
	-0.000500000000000103,-2.27049148249049e-10
	0.499999999999897,-2.27049148249049e-07
	1,0
 13	218.776162394955,0
	0.000499999999999764,-3.43652792280117e-10
	-0.000500000000000236,-3.43652792280117e-10
	0.499999999999764,-3.43652792280117e-07
	1,0
 14	331.131121482591,0
	0.000499999999999459,-5.20139549311766e-10
	-0.000500000000000541,-5.20139549311766e-10
	0.499999999999459,-5.20139549311766e-07
	1,0
 15	501.187233627272,0
	0.00049999999999876,-7.87263065616264e-10
	-0.00050000000000124,-7.87263065616264e-10
	0.49999999999876,-7.87263065616264e-07
	1,0
 16	758.577575029184,0
	0.00049999999999716,-1.19157086843805e-09
	-0.00050000000000284,-1.19157086843805e-09
	0.49999999999716,-1.19157086843805e-06
	1,0
 17	1148.15362149688,0
	0.000499999999993495,-1.8035154912201e-09
	-0.000500000000006505,-1.8035154912201e-09
	0.499999999993495,-1.8035154912201e-06
	1,0
 18	1737.80082874938,0
	0.000499999999985097,-2.72973115841928e-09
	-0.000500000000014903,-2.72973115841928e-09
	0.499999999985097,-2.72973115841928e-06
	1,0
 19	2630.26799189538,0
	0.00049999999996586,-4.13161529987335e-09
	-0.00050000000003414,-4.13161529987335e-09
	0.49999999996586,-4.13161529987335e-06
	1,0
 20	3981.07170553497,0
	0.000499999999921789,-6.25345281078325e-09
	-0.000500000000078211,-6.25345281078325e-09
	0.499999999921789,-6.25345281078325e-06
	1,0
 21	6025.59586074358,0
	0.000499999999820828,-9.46498384141483e-09
	-0.000500000000179172,-9.46498384141483e-09
	0.499999999820828,-9.46498384141483e-06
	1,0
 22	9120.1083935591,0
	0.000499999999589541,-1.43258327528136e-08
	-0.000500000000410459,-1.43258327528136e-08
	0.499999999589541,-1.43258327528136e-05
	1,0
 23	13803.8426460289,0
	0.000499999999059693,-2.16830252832595e-08
	-0.000500000000940307,-2.16830252832595e-08
	0.499999999059693,-2.16830252832595e-05
	1,0
 24	20892.9613085404,0
	0.000499999997845881,-3.28185867379329e-08
	-0.000500000002154119,-3.28185867379329e-08
	0.499999997845881,-3.28185867379329e-05
	1,0
 25	31622.7766016838,0
	0.000499999995065198,-4.96729408387283e-08
	-0.000500000004934802,-4.96729408387283e-08
	0.499999995065198,-4.96729408387283e-05
	1,0
 26	47863.0092322639,0
	0.000499999988695021,-7.5183037391505e-08
	-0.000500000011304979,-7.5183037391505e-08
	0.499999988695021,-7.5183037391505e-05
	1,0
 27	72443.596007499,0
	0.000499999974101791,-1.13794128614264e-07
	-0.000500000025898209,-1.13794128614264e-07
	0.499999974101791,-0.000113794128614264
	1,0
 28	109647.819614319,0
	0.000499999940670635,-1.72234371854127e-07
	-0.000500000059329365,-1.72234371854127e-07
	0.499999940670635,-0.000172234371854127
	1,0
 29	165958.690743756,0
	0.000499999864084298,-2.60687230956987e-07
	-0.000500000135915702,-2.60687230956987e-07
	0.499999864084298,-0.000260687230956987
	1,0
 30	251188.643150958,0
	0.000499999688635225,-3.94565952286088e-07
	-0.000500000311364775,-3.94565952286088e-07
	0.499999688635225,-0.000394565952286088
	1,0
 31	380189.396320561,0
	0.000499999286705081,-5.97199255267104e-07
	-0.000500000713294919,-5.97199255267104e-07
	0.499999286705081,-0.000597199255267104
	1,0
 32	575439.937337157,0
	0.000499998365938753,-9.03895985807835e-07
	-0.000500001634061247,-9.03895985807835e-07
	0.499998365938753,-0.000903895985807835
	1,0
 33	870963.589956081,0
	0.00049999625659774,-1.36809616512987e-06
	-0.00050000374340226,-1.36809616512987e-06
	0.49999625659774,-0.00136809616512987
	1,0
 34	1318256.73855641,0
	0.000499991424443729,-2.07067732766802e-06
	-0.000500008575556271,-2.07067732766802e-06
	0.499991424443729,-0.00207067732766802
	1,0
 35	1995262.31496888,0
	0.000499980354970472,-3.1340275743787e-06
	-0.000500019645029528,-3.1340275743787e-06
	0.499980354970472,-0.0031340275743787
	1,0
 36	3019951.72040202,0
	0.000499954998119733,-4.74330211605021e-06
	-0.000500045001880267,-4.74330211605021e-06
	0.499954998119733,-0.00474330211605021
	1,0
 37	4570881.89614875,0
	0.000499896918624481,-7.1784442596981e-06
	-0.000500103081375519,-7.1784442596981e-06
	0.499896918624481,-0.0071784442596981
	1,0
 38	6918309.70918937,0
	0.000499763917039702,-1.08621243311366e-05
	-0.000500236082960299,-1.08621243311366e-05
	0.499763917039702,-0.0108621243311366
	1,0
 39	10471285.480509,0
	0.000499459494622917,-1.64304760271491e-05
	-0.000500540505377083,-1.64304760271491e-05
	0.499459494622917,-0.0164304760271491
	1,0
 40	15848931.9246112,0
	0.000498763499180442,-2.48338775768574e-05
	-0.000501236500819558,-2.48338775768574e-05
	0.498763499180442,-0.0248338775768574
	1,0
 41	23988329.1901949,0
	0.000497176354244519,-3.74679850323977e-05
	-0.000502823645755481,-3.74679850323977e-05
	0.497176354244519,-0.0374679850323977
	1,0
 42	36307805.4770102,0
	0.000493578215480987,-5.62996708968886e-05
	-0.000506421784519013,-5.62996708968886e-05
	0.493578215480987,-0.0562996708968886
	1,0
 43	54954087.3857625,0
	0.000485528470100008,-8.38232651019374e-05
	-0.000514471529899992,-8.38232651019374e-05
	0.485528470100008,-0.0838232651019374
	1,0
 44	83176377.1102672,0
	0.000468041657000736,-0.000122302231428431
	-0.000531958342999264,-0.000122302231428431
	0.468041657000736,-0.122302231428431
	1,0
 45	125892541.179417,0
	0.000432367857418578,-0.000171002820387727
	-0.000567632142581422,-0.000171002820387727
	0.432367857418578,-0.171002820387727
	1,0
 46	190546071.796325,0
	0.000368095356547576,-0.00022034855743095
	-0.000631904643452424,-0.00022034855743095
	0.368095356547576,-0.22034855743095
	1,0
 47	288403150.312661,0
	0.000274586783773799,-0.000248788042445091
	-0.000725413216226201,-0.000248788042445091
	0.274586783773799,-0.248788042445091
	1,0
 48	436515832.240167,0
	0.000173574085058046,-0.000238031677566842
	-0.000826425914941954,-0.000238031677566842
	0.173574085058046,-0.238031677566842
	1,0
 49	660693448.007597,0
	9.41932041215923e-05,-0.000195510210367909
	-0.000905806795878408,-0.000195510210367909
	0.0941932041215923,-0.195510210367909
	1,0
 50	1000000000,0
	4.59998341751876e-05,-0.000144512741111118
	-0.000954000165824812,-0.000144512741111118
	0.0459998341751876,-0.144512741111118
	1,0
Plotname: Transient Analysis `tran': time = (0 s -> 10 ns)
Flags: real
No. Variables:        5
No. Points:       57
Variables:	0	time	s
		1	R1:1	A plot=0 grid=0
		2	V0:p	A plot=0 grid=0
		3	O	V plot=0 grid=0
		4	I	V plot=0 grid=0
Values:
 0	0	9.99997999961977e-10	-0.000999999000002
	9.99997999961977e-07	1
 1	1e-11	9.80490195882349e-06	-0.000990195098041176
	0.00980490195882349	1
 2	1.83691165653218e-11	1.78748255272998e-05	-0.0009821251744727
	0.0178748255272998	1
 3	2.94658682521398e-11	2.84574395732096e-05	-0.000971542560426791
	0.0284574395732096	1
 4	5.16593716257758e-11	4.89333697588461e-05	-0.000951066630241154
	0.0489333697588461	1
 5	9.60463783730477e-11	8.72745161550273e-05	-0.000912725483844973
	0.0872745161550273	1
 6	1.84820391867592e-10	0.000154578285749597	-0.000845421714250403
	0.154578285749597	1
 7	3.45481922856327e-10	0.000250206477029354	-0.000749793522970646
	0.250206477029354	1
 8	5.1691564827008e-10	0.000323318652815412	-0.000676681347184588
	0.323318652815412	1
 9	7.07948331074541e-10	0.000379995370829068	-0.000620004629170932
	0.379995370829068	1
 10	9.07948331074541e-10	0.000419996913886045	-0.000580003086113955
	0.419996913886045	1
 11	1.10794833107454e-09	0.000446664609257364	-0.000553335390742636
	0.446664609257364	1
 12	1.30794833107454e-09	0.000464443072838242	-0.000535556927161757
	0.464443072838242	1
 13	1.50794833107454e-09	0.000476295381892162	-0.000523704618107838
	0.476295381892162	1
 14	1.70794833107454e-09	0.000484196921261441	-0.000515803078738559
	0.484196921261441	1
 15	1.90794833107454e-09	0.000489464614174294	-0.000510535385825706
	0.489464614174294	1
 16	2.10794833107454e-09	0.000492976409449529	-0.000507023590550471
	0.492976409449529	1
 17	2.30794833107454e-09	0.000495317606299686	-0.000504682393700314
	0.495317606299686	1
 18	2.50794833107454e-09	0.000496878404199791	-0.000503121595800209
	0.496878404199791	1
 19	2.70794833107454e-09	0.000497918936133194	-0.000502081063866806
	0.497918936133194	1
 20	2.90794833107454e-09	0.000498612624088796	-0.000501387375911204
	0.498612624088796	1
 21	3.10794833107454e-09	0.000499075082725864	-0.000500924917274136
	0.499075082725864	1
 22	3.30794833107454e-09	0.000499383388483909	-0.000500616611516091
	0.499383388483909	1
 23	3.50794833107454e-09	0.00049958892565594	-0.00050041107434406
	0.49958892565594	1
 24	3.70794833107454e-09	0.000499725950437293	-0.000500274049562707
	0.499725950437293	1
 25	3.90794833107454e-09	0.000499817300291529	-0.000500182699708471
	0.499817300291529	1
 26	4.10794833107454e-09	0.000499878200194352	-0.000500121799805648
	0.499878200194352	1
 27	4.30794833107454e-09	0.000499918800129568	-0.000500081199870432
	0.499918800129568	1
 28	4.50794833107454e-09	0.000499945866753045	-0.000500054133246955
	0.499945866753045	1
 29	4.70794833107454e-09	0.000499963911168697	-0.000500036088831303
	0.499963911168697	1
 30	4.90794833107454e-09	0.000499975940779131	-0.000500024059220869
	0.499975940779131	1
 31	5.10794833107454e-09	0.000499983960519421	-0.000500016039480579
	0.499983960519421	1
 32	5.30794833107454e-09	0.000499989307012947	-0.000500010692987053
	0.499989307012947	1
 33	5.50794833107454e-09	0.000499992871341965	-0.000500007128658035
	0.499992871341965	1
 34	5.70794833107454e-09	0.00049999524756131	-0.00050000475243869
	0.49999524756131	1
 35	5.90794833107454e-09	0.00049999683170754	-0.00050000316829246
	0.49999683170754	1
 36	6.10794833107454e-09	0.000499997887805027	-0.000500002112194974
	0.499997887805027	1
 37	6.30794833107454e-09	0.000499998591870018	-0.000500001408129982
	0.499998591870018	1
 38	6.50794833107454e-09	0.000499999061246679	-0.000500000938753322
	0.499999061246678	1
 39	6.70794833107454e-09	0.000499999374164452	-0.000500000625835548
	0.499999374164452	1
 40	6.90794833107454e-09	0.000499999582776301	-0.000500000417223699
	0.499999582776302	1
 41	7.10794833107454e-09	0.000499999721850868	-0.000500000278149132
	0.499999721850868	1
 42	7.30794833107454e-09	0.000499999814567245	-0.000500000185432755
	0.499999814567245	1
 43	7.50794833107454e-09	0.000499999876378164	-0.000500000123621837
	0.499999876378164	1
 44	7.70794833107454e-09	0.000499999917585442	-0.000500000082414558
	0.499999917585442	1
 45	7.90794833107454e-09	0.000499999945056962	-0.000500000054943038
	0.499999945056962	1
 46	8.10794833107454e-09	0.000499999963371308	-0.000500000036628692
	0.499999963371308	1
 47	8.30794833107454e-09	0.000499999975580872	-0.000500000024419128
	0.499999975580872	1
 48	8.50794833107454e-09	0.000499999983720581	-0.000500000016279419
	0.499999983720581	1
 49	8.70794833107454e-09	0.000499999989147054	-0.000500000010852946
	0.499999989147054	1
 50	8.90794833107454e-09	0.000499999992764703	-0.000500000007235297
	0.499999992764703	1
 51	9.10794833107454e-09	0.000499999995176468	-0.000500000004823532
	0.499999995176468	1
 52	9.30794833107454e-09	0.000499999996784312	-0.000500000003215688
	0.499999996784312	1
 53	9.50794833107455e-09	0.000499999997856208	-0.000500000002143792
	0.499999997856208	1
 54	9.70794833107455e-09	0.000499999998570805	-0.000500000001429195
	0.499999998570805	1
 55	9.85397416553727e-09	0.00049999999893502	-0.000500000001064981
	0.49999999893502	1
 56	1e-08	0.000499999999206418	-0.000500000000793582
	0.499999999206418	1
